Freq.	I(R1)
1.00000000000000e+008	(-1.11787518814202e+002dB,-9.12594989289758e+001°)
1.00230523807790e+008	(-1.11726971291064e+002dB,-9.12624061355218e+001°)
1.00461579027840e+008	(-1.11666421205809e+002dB,-9.12653203724636e+001°)
1.00693166885180e+008	(-1.11605868546283e+002dB,-9.12682416581407e+001°)
1.00925288607668e+008	(-1.11545313300275e+002dB,-9.12711700101357e+001°)
1.01157945425990e+008	(-1.11484755455510e+002dB,-9.12741054467646e+001°)
1.01391138573668e+008	(-1.11424194999660e+002dB,-9.12770479857584e+001°)
1.01624869287070e+008	(-1.11363631920330e+002dB,-9.12799976453844e+001°)
1.01859138805412e+008	(-1.11303066205071e+002dB,-9.12829544434898e+001°)
1.02093948370768e+008	(-1.11242497841368e+002dB,-9.12859183987682e+001°)
1.02329299228075e+008	(-1.11181926816647e+002dB,-9.12888895289684e+001°)
1.02565192625141e+008	(-1.11121353118274e+002dB,-9.12918678526580e+001°)
1.02801629812647e+008	(-1.11060776733552e+002dB,-9.12948533879494e+001°)
1.03038612044162e+008	(-1.11000197649721e+002dB,-9.12978461535662e+001°)
1.03276140576140e+008	(-1.10939615853962e+002dB,-9.13008461677548e+001°)
1.03514216667934e+008	(-1.10879031333388e+002dB,-9.13038534491737e+001°)
1.03752841581801e+008	(-1.10818444075055e+002dB,-9.13068680164654e+001°)
1.03992016582906e+008	(-1.10757854065953e+002dB,-9.13098898878437e+001°)
1.04231742939330e+008	(-1.10697261293006e+002dB,-9.13129190827508e+001°)
1.04472021922080e+008	(-1.10636665743080e+002dB,-9.13159556193683e+001°)
1.04712854805090e+008	(-1.10576067402971e+002dB,-9.13189995164328e+001°)
1.04954242865232e+008	(-1.10515466259413e+002dB,-9.13220507932769e+001°)
1.05196187382322e+008	(-1.10454862299075e+002dB,-9.13251094687903e+001°)
1.05438689639126e+008	(-1.10394255508563e+002dB,-9.13281755614922e+001°)
1.05681750921366e+008	(-1.10333645874412e+002dB,-9.13312490909610e+001°)
1.05925372517729e+008	(-1.10273033383095e+002dB,-9.13343300761979e+001°)
1.06169555719872e+008	(-1.10212418021018e+002dB,-9.13374185359972e+001°)
1.06414301822431e+008	(-1.10151799774522e+002dB,-9.13405144900429e+001°)
1.06659612123026e+008	(-1.10091178629876e+002dB,-9.13436179576019e+001°)
1.06905487922266e+008	(-1.10030554573288e+002dB,-9.13467289578789e+001°)
1.07151930523760e+008	(-1.09969927590895e+002dB,-9.13498475100660e+001°)
1.07398941234124e+008	(-1.09909297668765e+002dB,-9.13529736341098e+001°)
1.07646521362983e+008	(-1.09848664792902e+002dB,-9.13561073492974e+001°)
1.07894672222983e+008	(-1.09788028949236e+002dB,-9.13592486751756e+001°)
1.08143395129794e+008	(-1.09727390123630e+002dB,-9.13623976318661e+001°)
1.08392691402120e+008	(-1.09666748301881e+002dB,-9.13655542382635e+001°)
1.08642562361706e+008	(-1.09606103469711e+002dB,-9.13687185149014e+001°)
1.08893009333343e+008	(-1.09545455612775e+002dB,-9.13718904813068e+001°)
1.09144033644875e+008	(-1.09484804716657e+002dB,-9.13750701575821e+001°)
1.09395636627209e+008	(-1.09424150766869e+002dB,-9.13782575633294e+001°)
1.09647819614318e+008	(-1.09363493748853e+002dB,-9.13814527189211e+001°)
1.09900583943252e+008	(-1.09302833647979e+002dB,-9.13846556445650e+001°)
1.10153930954141e+008	(-1.09242170449546e+002dB,-9.13878663600743e+001°)
1.10407861990207e+008	(-1.09181504138778e+002dB,-9.13910848859722e+001°)
1.10662378397766e+008	(-1.09120834700828e+002dB,-9.13943112425759e+001°)
1.10917481526240e+008	(-1.09060162120779e+002dB,-9.13975454499001e+001°)
1.11173172728159e+008	(-1.08999486383634e+002dB,-9.14007875288632e+001°)
1.11429453359173e+008	(-1.08938807474327e+002dB,-9.14040374994764e+001°)
1.11686324778056e+008	(-1.08878125377717e+002dB,-9.14072953828203e+001°)
1.11943788346715e+008	(-1.08817440078587e+002dB,-9.14105611991230e+001°)
1.12201845430196e+008	(-1.08756751561645e+002dB,-9.14138349690753e+001°)
1.12460497396692e+008	(-1.08696059811525e+002dB,-9.14171167137096e+001°)
1.12719745617551e+008	(-1.08635364812785e+002dB,-9.14204064537848e+001°)
1.12979591467279e+008	(-1.08574666549906e+002dB,-9.14237042099385e+001°)
1.13240036323555e+008	(-1.08513965007293e+002dB,-9.14270100036897e+001°)
1.13501081567231e+008	(-1.08453260169272e+002dB,-9.14303238555962e+001°)
1.13762728582343e+008	(-1.08392552020094e+002dB,-9.14336457868763e+001°)
1.14024978756117e+008	(-1.08331840543933e+002dB,-9.14369758186786e+001°)
1.14287833478977e+008	(-1.08271125724882e+002dB,-9.14403139722160e+001°)
1.14551294144553e+008	(-1.08210407546956e+002dB,-9.14436602691309e+001°)
1.14815362149688e+008	(-1.08149685994093e+002dB,-9.14470147304304e+001°)
1.15080038894443e+008	(-1.08088961050149e+002dB,-9.14503773775696e+001°)
1.15345325782109e+008	(-1.08028232698902e+002dB,-9.14537482323289e+001°)
1.15611224219209e+008	(-1.07967500924047e+002dB,-9.14571273163470e+001°)
1.15877735615512e+008	(-1.07906765709202e+002dB,-9.14605146507886e+001°)
1.16144861384034e+008	(-1.07846027037903e+002dB,-9.14639102578437e+001°)
1.16412602941049e+008	(-1.07785284893601e+002dB,-9.14673141592266e+001°)
1.16680961706096e+008	(-1.07724539259670e+002dB,-9.14707263766444e+001°)
1.16949939101987e+008	(-1.07663790119396e+002dB,-9.14741469321315e+001°)
1.17219536554813e+008	(-1.07603037455987e+002dB,-9.14775758479283e+001°)
1.17489755493953e+008	(-1.07542281252566e+002dB,-9.14810131458134e+001°)
1.17760597352080e+008	(-1.07481521492171e+002dB,-9.14844588483175e+001°)
1.18032063565173e+008	(-1.07420758157758e+002dB,-9.14879129771777e+001°)
1.18304155572516e+008	(-1.07359991232197e+002dB,-9.14913755551889e+001°)
1.18576874816716e+008	(-1.07299220698272e+002dB,-9.14948466045592e+001°)
1.18850222743701e+008	(-1.07238446538683e+002dB,-9.14983261476666e+001°)
1.19124200802737e+008	(-1.07177668736045e+002dB,-9.15018142071506e+001°)
1.19398810446427e+008	(-1.07116887272884e+002dB,-9.15053108055802e+001°)
1.19674053130724e+008	(-1.07056102131640e+002dB,-9.15088159657581e+001°)
1.19949930314937e+008	(-1.06995313294667e+002dB,-9.15123297103929e+001°)
1.20226443461741e+008	(-1.06934520744229e+002dB,-9.15158520622943e+001°)
1.20503594037179e+008	(-1.06873724462503e+002dB,-9.15193830443565e+001°)
1.20781383510678e+008	(-1.06812924431577e+002dB,-9.15229226796428e+001°)
1.21059813355048e+008	(-1.06752120633450e+002dB,-9.15264709912635e+001°)
1.21338885046497e+008	(-1.06691313050030e+002dB,-9.15300280023582e+001°)
1.21618600064636e+008	(-1.06630501663137e+002dB,-9.15335937359785e+001°)
1.21898959892486e+008	(-1.06569686454498e+002dB,-9.15371682157599e+001°)
1.22179966016487e+008	(-1.06508867405750e+002dB,-9.15407514648094e+001°)
1.22461619926504e+008	(-1.06448044498441e+002dB,-9.15443435066719e+001°)
1.22743923115840e+008	(-1.06387217714020e+002dB,-9.15479443650044e+001°)
1.23026877081238e+008	(-1.06326387033851e+002dB,-9.15515540633588e+001°)
1.23310483322890e+008	(-1.06265552439199e+002dB,-9.15551726253517e+001°)
1.23594743344450e+008	(-1.06204713911239e+002dB,-9.15588000749195e+001°)
1.23879658653036e+008	(-1.06143871431050e+002dB,-9.15624364359078e+001°)
1.24165230759240e+008	(-1.06083024979617e+002dB,-9.15660817324187e+001°)
1.24451461177138e+008	(-1.06022174537831e+002dB,-9.15697359880372e+001°)
1.24738351424294e+008	(-1.05961320086486e+002dB,-9.15733992271929e+001°)
1.25025903021771e+008	(-1.05900461606278e+002dB,-9.15770714741921e+001°)
1.25314117494141e+008	(-1.05839599077810e+002dB,-9.15807527531007e+001°)
1.25602996369487e+008	(-1.05778732481587e+002dB,-9.15844430884378e+001°)
1.25892541179416e+008	(-1.05717861798013e+002dB,-9.15881425045928e+001°)
1.26182753459066e+008	(-1.05656987007399e+002dB,-9.15918510259730e+001°)
1.26473634747114e+008	(-1.05596108089952e+002dB,-9.15955686774066e+001°)
1.26765186585784e+008	(-1.05535225025784e+002dB,-9.15992954835695e+001°)
1.27057410520853e+008	(-1.05474337794904e+002dB,-9.16030314690394e+001°)
1.27350308101665e+008	(-1.05413446377222e+002dB,-9.16067766590358e+001°)
1.27643880881134e+008	(-1.05352550752547e+002dB,-9.16105310783336e+001°)
1.27938130415752e+008	(-1.05291650900588e+002dB,-9.16142947519169e+001°)
1.28233058265601e+008	(-1.05230746800948e+002dB,-9.16180677049310e+001°)
1.28528665994361e+008	(-1.05169838433131e+002dB,-9.16218499628014e+001°)
1.28824955169313e+008	(-1.05108925776536e+002dB,-9.16256415507666e+001°)
1.29121927361353e+008	(-1.05048008810461e+002dB,-9.16294424940877e+001°)
1.29419584144998e+008	(-1.04987087514096e+002dB,-9.16332528184114e+001°)
1.29717927098395e+008	(-1.04926161866528e+002dB,-9.16370725492239e+001°)
1.30016957803328e+008	(-1.04865231846739e+002dB,-9.16409017123734e+001°)
1.30316677845229e+008	(-1.04804297433605e+002dB,-9.16447403333694e+001°)
1.30617088813183e+008	(-1.04743358605895e+002dB,-9.16485884382201e+001°)
1.30918192299940e+008	(-1.04682415342270e+002dB,-9.16524460528920e+001°)
1.31219989901919e+008	(-1.04621467621285e+002dB,-9.16563132034163e+001°)
1.31522483219223e+008	(-1.04560515421387e+002dB,-9.16601899157575e+001°)
1.31825673855640e+008	(-1.04499558720911e+002dB,-9.16640762162271e+001°)
1.32129563418657e+008	(-1.04438597498087e+002dB,-9.16679721311873e+001°)
1.32434153519466e+008	(-1.04377631731030e+002dB,-9.16718776872231e+001°)
1.32739445772973e+008	(-1.04316661397748e+002dB,-9.16757929105485e+001°)
1.33045441797808e+008	(-1.04255686476138e+002dB,-9.16797178279409e+001°)
1.33352143216332e+008	(-1.04194706943982e+002dB,-9.16836524658417e+001°)
1.33659551654643e+008	(-1.04133722778951e+002dB,-9.16875968514226e+001°)
1.33967668742593e+008	(-1.04072733958606e+002dB,-9.16915510112480e+001°)
1.34276496113785e+008	(-1.04011740460388e+002dB,-9.16955149724787e+001°)
1.34586035405594e+008	(-1.03950742261628e+002dB,-9.16994887622095e+001°)
1.34896288259164e+008	(-1.03889739339542e+002dB,-9.17034724073358e+001°)
1.35207256319427e+008	(-1.03828731671229e+002dB,-9.17074659355722e+001°)
1.35518941235103e+008	(-1.03767719233673e+002dB,-9.17114693738657e+001°)
1.35831344658714e+008	(-1.03706702003738e+002dB,-9.17154827500520e+001°)
1.36144468246594e+008	(-1.03645679958175e+002dB,-9.17195060914962e+001°)
1.36458313658891e+008	(-1.03584653073614e+002dB,-9.17235394258771e+001°)
1.36772882559584e+008	(-1.03523621326566e+002dB,-9.17275827811086e+001°)
1.37088176616484e+008	(-1.03462584693424e+002dB,-9.17316361849871e+001°)
1.37404197501251e+008	(-1.03401543150460e+002dB,-9.17356996653307e+001°)
1.37720946889394e+008	(-1.03340496673826e+002dB,-9.17397732504483e+001°)
1.38038426460287e+008	(-1.03279445239550e+002dB,-9.17438569684461e+001°)
1.38356637897177e+008	(-1.03218388823542e+002dB,-9.17479508474949e+001°)
1.38675582887188e+008	(-1.03157327401584e+002dB,-9.17520549162847e+001°)
1.38995263121334e+008	(-1.03096260949341e+002dB,-9.17561692029444e+001°)
1.39315680294529e+008	(-1.03035189442347e+002dB,-9.17602937362268e+001°)
1.39636836105593e+008	(-1.02974112856015e+002dB,-9.17644285449568e+001°)
1.39958732257261e+008	(-1.02913031165633e+002dB,-9.17685736577571e+001°)
1.40281370456195e+008	(-1.02851944346359e+002dB,-9.17727291037449e+001°)
1.40604752412990e+008	(-1.02790852373229e+002dB,-9.17768949117996e+001°)
1.40928879842186e+008	(-1.02729755221147e+002dB,-9.17810711109954e+001°)
1.41253754462274e+008	(-1.02668652864891e+002dB,-9.17852577307636e+001°)
1.41579377995707e+008	(-1.02607545279109e+002dB,-9.17894548001759e+001°)
1.41905752168908e+008	(-1.02546432438320e+002dB,-9.17936623490472e+001°)
1.42232878712281e+008	(-1.02485314316911e+002dB,-9.17978804067214e+001°)
1.42560759360218e+008	(-1.02424190889139e+002dB,-9.18021090028550e+001°)
1.42889395851109e+008	(-1.02363062129128e+002dB,-9.18063481673813e+001°)
1.43218789927353e+008	(-1.02301928010869e+002dB,-9.18105979300526e+001°)
1.43548943335364e+008	(-1.02240788508222e+002dB,-9.18148583210152e+001°)
1.43879857825583e+008	(-1.02179643594910e+002dB,-9.18191293704104e+001°)
1.44211535152486e+008	(-1.02118493244523e+002dB,-9.18234111082846e+001°)
1.44543977074592e+008	(-1.02057337430513e+002dB,-9.18277035652026e+001°)
1.44877185354475e+008	(-1.01996176126196e+002dB,-9.18320067715003e+001°)
1.45211161758773e+008	(-1.01935009304753e+002dB,-9.18363207578907e+001°)
1.45545908058195e+008	(-1.01873836939225e+002dB,-9.18406455549568e+001°)
1.45881426027534e+008	(-1.01812659002513e+002dB,-9.18449811936865e+001°)
1.46217717445671e+008	(-1.01751475467382e+002dB,-9.18493277047988e+001°)
1.46554784095590e+008	(-1.01690286306452e+002dB,-9.18536851195528e+001°)
1.46892627764385e+008	(-1.01629091492206e+002dB,-9.18580534689086e+001°)
1.47231250243271e+008	(-1.01567890996982e+002dB,-9.18624327843783e+001°)
1.47570653327588e+008	(-1.01506684792977e+002dB,-9.18668230971942e+001°)
1.47910838816819e+008	(-1.01445472852244e+002dB,-9.18712244390900e+001°)
1.48251808514594e+008	(-1.01384255146690e+002dB,-9.18756368415873e+001°)
1.48593564228699e+008	(-1.01323031648079e+002dB,-9.18800603364378e+001°)
1.48936107771090e+008	(-1.01261802328027e+002dB,-9.18844949556719e+001°)
1.49279440957898e+008	(-1.01200567158006e+002dB,-9.18889407311681e+001°)
1.49623565609442e+008	(-1.01139326109336e+002dB,-9.18933976952361e+001°)
1.49968483550236e+008	(-1.01078079153192e+002dB,-9.18978658800264e+001°)
1.50314196609001e+008	(-1.01016826260598e+002dB,-9.19023453178956e+001°)
1.50660706618673e+008	(-1.00955567402427e+002dB,-9.19068360416003e+001°)
1.51008015416413e+008	(-1.00894302549402e+002dB,-9.19113380835613e+001°)
1.51356124843619e+008	(-1.00833031672096e+002dB,-9.19158514766789e+001°)
1.51705036745932e+008	(-1.00771754740924e+002dB,-9.19203762538028e+001°)
1.52054752973248e+008	(-1.00710471726152e+002dB,-9.19249124480225e+001°)
1.52405275379728e+008	(-1.00649182597888e+002dB,-9.19294600924973e+001°)
1.52756605823806e+008	(-1.00587887326088e+002dB,-9.19340192205862e+001°)
1.53108746168202e+008	(-1.00526585880548e+002dB,-9.19385898655807e+001°)
1.53461698279928e+008	(-1.00465278230909e+002dB,-9.19431720610778e+001°)
1.53815464030302e+008	(-1.00403964346652e+002dB,-9.19477658409017e+001°)
1.54170045294954e+008	(-1.00342644197102e+002dB,-9.19523712387385e+001°)
1.54525443953840e+008	(-1.00281317751420e+002dB,-9.19569882886903e+001°)
1.54881661891247e+008	(-1.00219984978609e+002dB,-9.19616170247156e+001°)
1.55238700995807e+008	(-1.00158645847509e+002dB,-9.19662574811250e+001°)
1.55596563160506e+008	(-1.00097300326797e+002dB,-9.19709096922145e+001°)
1.55955250282694e+008	(-1.00035948384986e+002dB,-9.19755736926541e+001°)
1.56314764264094e+008	(-9.99745899904258e+001dB,-9.19802495169833e+001°)
1.56675107010813e+008	(-9.99132251112991e+001dB,-9.19849371999947e+001°)
1.57036280433354e+008	(-9.98518537156223e+001dB,-9.19896367765998e+001°)
1.57398286446620e+008	(-9.97904757712443e+001dB,-9.19943482819699e+001°)
1.57761126969933e+008	(-9.97290912458459e+001dB,-9.19990717512210e+001°)
1.58124803927037e+008	(-9.96677001069376e+001dB,-9.20038072196878e+001°)
1.58489319246110e+008	(-9.96063023218597e+001dB,-9.20085547229197e+001°)
1.58854674859776e+008	(-9.95448978577809e+001dB,-9.20133142965874e+001°)
1.59220872705115e+008	(-9.94834866816979e+001dB,-9.20180859763483e+001°)
1.59587914723672e+008	(-9.94220687604328e+001dB,-9.20228697983624e+001°)
1.59955802861465e+008	(-9.93606440606344e+001dB,-9.20276657984571e+001°)
1.60324539069002e+008	(-9.92992125487753e+001dB,-9.20324740129838e+001°)
1.60694125301286e+008	(-9.92377741911514e+001dB,-9.20372944783271e+001°)
1.61064563517825e+008	(-9.91763289538808e+001dB,-9.20421272310618e+001°)
1.61435855682647e+008	(-9.91148768029048e+001dB,-9.20469723076443e+001°)
1.61808003764305e+008	(-9.90534177039819e+001dB,-9.20518297451460e+001°)
1.62181009735891e+008	(-9.89919516226925e+001dB,-9.20566995804385e+001°)
1.62554875575047e+008	(-9.89304785244343e+001dB,-9.20615818505493e+001°)
1.62929603263970e+008	(-9.88689983744211e+001dB,-9.20664765930023e+001°)
1.63305194789432e+008	(-9.88075111376847e+001dB,-9.20713838450166e+001°)
1.63681652142779e+008	(-9.87460167790696e+001dB,-9.20763036443715e+001°)
1.64058977319952e+008	(-9.86845152632368e+001dB,-9.20812360286113e+001°)
1.64437172321491e+008	(-9.86230065546577e+001dB,-9.20861810357736e+001°)
1.64816239152549e+008	(-9.85614906176168e+001dB,-9.20911387039545e+001°)
1.65196179822900e+008	(-9.84999674162082e+001dB,-9.20961090713533e+001°)
1.65576996346951e+008	(-9.84384369143363e+001dB,-9.21010921763154e+001°)
1.65958690743754e+008	(-9.83768990757134e+001dB,-9.21060880574082e+001°)
1.66341265037015e+008	(-9.83153538638589e+001dB,-9.21110967533397e+001°)
1.66724721255104e+008	(-9.82538012420981e+001dB,-9.21161183030682e+001°)
1.67109061431069e+008	(-9.81922411735617e+001dB,-9.21211527454545e+001°)
1.67494287602642e+008	(-9.81306736211835e+001dB,-9.21262001198944e+001°)
1.67880401812254e+008	(-9.80690985477001e+001dB,-9.21312604657037e+001°)
1.68267406107045e+008	(-9.80075159156499e+001dB,-9.21363338223702e+001°)
1.68655302538872e+008	(-9.79459256873708e+001dB,-9.21414202296103e+001°)
1.69044093164324e+008	(-9.78843278249995e+001dB,-9.21465197273501e+001°)
1.69433780044731e+008	(-9.78227222904716e+001dB,-9.21516323556324e+001°)
1.69824365246172e+008	(-9.77611090455184e+001dB,-9.21567581546324e+001°)
1.70215850839493e+008	(-9.76994880516665e+001dB,-9.21618971647767e+001°)
1.70608238900310e+008	(-9.76378592702372e+001dB,-9.21670494266450e+001°)
1.71001531509027e+008	(-9.75762226623440e+001dB,-9.21722149809423e+001°)
1.71395730750840e+008	(-9.75145781888929e+001dB,-9.21773938686100e+001°)
1.71790838715757e+008	(-9.74529258105796e+001dB,-9.21825861307566e+001°)
1.72186857498599e+008	(-9.73912654878889e+001dB,-9.21877918086246e+001°)
1.72583789199018e+008	(-9.73295971810938e+001dB,-9.21930109437250e+001°)
1.72981635921508e+008	(-9.72679208502541e+001dB,-9.21982435776284e+001°)
1.73380399775412e+008	(-9.72062364552142e+001dB,-9.22034897521956e+001°)
1.73780082874935e+008	(-9.71445439556031e+001dB,-9.22087495093664e+001°)
1.74180687339159e+008	(-9.70828433108323e+001dB,-9.22140228913821e+001°)
1.74582215292048e+008	(-9.70211344800944e+001dB,-9.22193099406371e+001°)
1.74984668862463e+008	(-9.69594174223625e+001dB,-9.22246106995994e+001°)
1.75388050184174e+008	(-9.68976920963880e+001dB,-9.22299252111188e+001°)
1.75792361395867e+008	(-9.68359584607002e+001dB,-9.22352535180154e+001°)
1.76197604641161e+008	(-9.67742164736036e+001dB,-9.22405956634782e+001°)
1.76603782068614e+008	(-9.67124660931783e+001dB,-9.22459516907815e+001°)
1.77010895831740e+008	(-9.66507072772768e+001dB,-9.22513216434804e+001°)
1.77418948089014e+008	(-9.65889399835240e+001dB,-9.22567055652549e+001°)
1.77827941003890e+008	(-9.65271641693152e+001dB,-9.22621035000342e+001°)
1.78237876744807e+008	(-9.64653797918152e+001dB,-9.22675154917470e+001°)
1.78648757485203e+008	(-9.64035868079550e+001dB,-9.22729415849318e+001°)
1.79060585403527e+008	(-9.63417851744338e+001dB,-9.22783818238978e+001°)
1.79473362683250e+008	(-9.62799748477143e+001dB,-9.22838362533904e+001°)
1.79887091512876e+008	(-9.62181557840233e+001dB,-9.22893049182716e+001°)
1.80301774085954e+008	(-9.61563279393486e+001dB,-9.22947878636854e+001°)
1.80717412601090e+008	(-9.60944912694399e+001dB,-9.23002851348908e+001°)
1.81134009261958e+008	(-9.60326457298045e+001dB,-9.23057967773607e+001°)
1.81551566277311e+008	(-9.59707912757076e+001dB,-9.23113228368758e+001°)
1.81970085860996e+008	(-9.59089278621710e+001dB,-9.23168633592944e+001°)
1.82389570231961e+008	(-9.58470554439698e+001dB,-9.23224183907864e+001°)
1.82810021614272e+008	(-9.57851739756334e+001dB,-9.23279879776873e+001°)
1.83231442237119e+008	(-9.57232834114416e+001dB,-9.23335721664947e+001°)
1.83653834334832e+008	(-9.56613837054249e+001dB,-9.23391710040047e+001°)
1.84077200146893e+008	(-9.55994748113611e+001dB,-9.23447845371872e+001°)
1.84501541917945e+008	(-9.55375566827759e+001dB,-9.23504128132321e+001°)
1.84926861897805e+008	(-9.54756292729392e+001dB,-9.23560558796158e+001°)
1.85353162341478e+008	(-9.54136925348649e+001dB,-9.23617137839467e+001°)
1.85780445509167e+008	(-9.53517464213097e+001dB,-9.23673865739487e+001°)
1.86208713666284e+008	(-9.52897908847693e+001dB,-9.23730742978980e+001°)
1.86637969083464e+008	(-9.52278258774788e+001dB,-9.23787770039753e+001°)
1.87068214036577e+008	(-9.51658513514108e+001dB,-9.23844947406988e+001°)
